Circuit: * C:\Users\maruzka\Documents\Kicad\envcity_aqm_v2\simulacoes\powerpath_heltec.asc

WARNING: Less than two connections to node VUSB_SWO.  This node is used by S2.
Direct Newton iteration for .op point succeeded.
Semiconductor Device Operating Points:
                        --- Diodes ---
Name:      d1
Model:   1n5819
Id:     -8.71e-15
Vd:     -7.76e-12
Req:     1.12e+03
CAP:     1.10e-10

                        --- VDMOSFET Transistors ---
Name:          m1
Model:       fdr840p
Id:          5.00e-01
Vgs:        -7.87e-12
Vds:         5.86e-01
Vth:        -9.00e-01
Gm:          8.85e-03
Gds:         8.93e-06
Cgs:         3.70e-09
Cgd:         2.60e-09
Cbody:       1.84e-09



Date: Fri Dec 23 16:55:00 2022
Total elapsed time: 0.272 seconds.

tnom = 27
temp = 27
method = trap
totiter = 19
traniter = 0
tranpoints = 0
accept = 0
rejected = 0
matrix size = 13
fillins = 6
solver = Normal
Matrix Compiler1: 878 bytes object code size
Matrix Compiler2: 1.04 KB object code size
